!Murata Part Number: GCJ188R71C184KA01
!These Parameters are Measured in Series Mode Connection
!       o--ll--o
!Port1            Port2
!       o------o
!Operation Temp=25[degC], DC Bias Voltage=0[V]
!Freq. Start=100[Hz] Stop=6[GHz], 401[Steps]
!Data Generated on Nov 6, 2018
# Hz S RI R 50
!Freq.(Hz) S11(Real) S11(Imag) S21(Real) S21(Imag) S12(Real) S12(Imag) S22(Real) S22(Imag)
100.0 0.9998378899911292 -0.010504739737019207 1.6211000887077077E-4 0.010504739737019207 1.6211000887077077E-4 0.010504739737019207 0.9998378899911292 -0.010504739737019207
104.57921513303334 0.9998253901980885 -0.010983685998518136 1.7460980191147014E-4 0.010983685998518136 1.7460980191147014E-4 0.010983685998518136 0.9998253901980885 -0.010983685998518136
109.3681223784127 0.9998118810397331 -0.011484504002127947 1.8811896026705178E-4 0.011484504002127947 1.8811896026705178E-4 0.011484504002127947 0.9998118810397331 -0.011484504002127947
114.3763239890794 0.9997972678736213 -0.012008196260176386 2.0273212637852178E-4 0.012008196260176386 2.0273212637852178E-4 0.012008196260176386 0.9997972678736213 -0.012008196260176386
119.61386192579457 0.9997814465732905 -0.012555810438804412 2.1855342670956763E-4 0.012555810438804412 2.1855342670956763E-4 0.012555810438804412 0.9997814465732905 -0.012555810438804412
125.09123799230618 0.9997643027220697 -0.013128441256251957 2.3569727793026663E-4 0.013128441256251957 2.3569727793026663E-4 0.013128441256251957 0.9997643027220697 -0.013128441256251957
130.8194348925486 0.9997457107460074 -0.013727232465224087 2.542892539926997E-4 0.013727232465224087 2.542892539926997E-4 0.013727232465224087 0.9997457107460074 -0.013727232465224087
136.8099382520969 0.999725532978365 -0.014353378923254563 2.744670216348919E-4 0.014353378923254563 2.744670216348919E-4 0.014353378923254563 0.999725532978365 -0.014353378923254563
143.0747596480305 0.9997036186475289 -0.015008128754601842 2.963813524710686E-4 0.015008128754601842 2.963813524710686E-4 0.015008128754601842 0.9997036186475289 -0.015008128754601842
149.6264606933842 0.9996798027796107 -0.01569278560684582 3.2019722038921126E-4 0.01569278560684582 3.2019722038921126E-4 0.01569278560684582 0.9996798027796107 -0.01569278560684582
156.47817822447783 0.9996539050064976 -0.01640871100502614 3.4609499350232226E-4 0.01640871100502614 3.4609499350232226E-4 0.01640871100502614 0.9996539050064976 -0.01640871100502614
163.643650641628 0.9996257282695862 -0.017157326805891715 3.742717304138611E-4 0.017157326805891715 3.742717304138611E-4 0.017157326805891715 0.9996257282695862 -0.017157326805891715
171.13724545605763 0.9995950574089101 -0.017940117754626193 4.0494259108995816E-4 0.017940117754626193 4.0494259108995816E-4 0.017940117754626193 0.9995950574089101 -0.017940117754626193
178.97398809823787 0.9995616576267874 -0.01875863414628038 4.3834237321259206E-4 0.01875863414628038 4.3834237321259206E-4 0.01875863414628038 0.9995616576267874 -0.01875863414628038
187.1695920454257 0.9995252728144491 -0.019614494594076364 4.747271855509198E-4 0.019614494594076364 4.747271855509198E-4 0.019614494594076364 0.9995252728144491 -0.019614494594076364
195.74049032880657 0.9994856237293352 -0.02050938890674372 5.143762706646808E-4 0.02050938890674372 5.143762706646808E-4 0.02050938890674372 0.9994856237293352 -0.02050938890674372
204.70386848341695 0.9994424060098239 -0.02144508107709142 5.575939901761425E-4 0.02144508107709142 5.575939901761425E-4 0.02144508107709142 0.9994424060098239 -0.02144508107709142
214.0776990069143 0.9993952880130524 -0.02242341238409274 6.047119869476537E-4 0.02242341238409274 6.047119869476537E-4 0.02242341238409274 0.9993952880130524 -0.02242341238409274
223.88077739628844 0.9993439084601872 -0.023446304610843474 6.560915398127839E-4 0.023446304610843474 6.560915398127839E-4 0.023446304610843474 0.9993439084601872 -0.023446304610843474
234.132759834772 0.9992878738719375 -0.024515763380813894 7.121261280625551E-4 0.024515763380813894 7.121261280625551E-4 0.024515763380813894 0.9992878738719375 -0.024515763380813894
244.85420260451448 0.9992267557752834 -0.02563388161481998 7.732442247166602E-4 0.02563388161481998 7.732442247166602E-4 0.02563388161481998 0.9992267557752834 -0.02563388161481998
256.06660330404856 0.9991600876602561 -0.026802843111043622 8.399123397439325E-4 0.026802843111043622 8.399123397439325E-4 0.026802843111043622 0.9991600876602561 -0.026802843111043622
267.792443953192 0.9990873616631345 -0.028024926250181475 9.126383368655013E-4 0.028024926250181475 9.126383368655013E-4 0.028024926250181475 0.9990873616631345 -0.028024926250181475
280.0552360718164 0.9990080249495975 -0.029302507827333672 9.919750504023255E-4 0.029302507827333672 9.919750504023255E-4 0.029302507827333672 0.9990080249495975 -0.029302507827333672
292.87956782286926 0.9989214757681668 -0.03063806701148152 0.0010785242318332362 0.03063806701148152 0.0010785242318332362 0.03063806701148152 0.9989214757681668 -0.03063806701148152
306.2911533141767 0.9988270591406839 -0.03203418943225848 0.001172940859316189 0.03203418943225848 0.001172940859316189 0.03203418943225848 0.9988270591406839 -0.03203418943225848
320.3168841578819 0.9987240621526146 -0.03349357139209471 0.0012759378473854778 0.03349357139209471 0.0012759378473854778 0.03349357139209471 0.9987240621526146 -0.03349357139209471
334.9848833909005 0.998611708801657 -0.03501902419960436 0.001388291198343024 0.03501902419960436 0.001388291198343024 0.03501902419960436 0.998611708801657 -0.03501902419960436
350.32456186451077 0.9984891543585385 -0.036613478617178084 0.0015108456414615519 0.036613478617178084 0.0015108456414615519 0.036613478617178084 0.9984891543585385 -0.036613478617178084
366.36667721614316 0.9983554791890662 -0.03827998941202953 0.0016445208109339016 0.03827998941202953 0.0016445208109339016 0.03827998941202953 0.9983554791890662 -0.03827998941202953
383.1433955416162 0.9982096819815688 -0.040021739995327876 0.0017903180184311745 0.040021739995327876 0.0017903180184311745 0.040021739995327876 0.9982096819815688 -0.040021739995327876
400.68835589147574 0.9980506723189588 -0.04184204712844282 0.0019493276810410801 0.04184204712844282 0.0019493276810410801 0.04184204712844282 0.9980506723189588 -0.04184204712844282
419.03673772076064 0.997877262529907 -0.04374436566868227 0.0021227374700929446 0.04374436566868227 0.0021227374700929446 0.04374436566868227 0.997877262529907 -0.04374436566868227
438.225331427439 0.9976881587492314 -0.04573229331919253 0.002311841250768607 0.04573229331919253 0.002311841250768607 0.04573229331919253 0.9976881587492314 -0.04573229331919253
458.2926121209498 0.9974819511137231 -0.047809575338936726 0.002518048886276929 0.047809575338936726 0.002518048886276929 0.047809575338936726 0.9974819511137231 -0.047809575338936726
479.2788167687661 0.9972571030164268 -0.049980109158933535 0.002742896983573237 0.049980109158933535 0.002742896983573237 0.049980109158933535 0.9972571030164268 -0.049980109158933535
501.22602487566456 0.9970119393400008 -0.052247948840317776 0.0029880606599992712 0.052247948840317776 0.0029880606599992712 0.052247948840317776 0.9970119393400008 -0.052247948840317776
524.1782428574726 0.9967446335882859 -0.054617309298416766 0.0032553664117140817 0.054617309298416766 0.0032553664117140817 0.054617309298416766 0.9967446335882859 -0.054617309298416766
548.1814922784702 0.9964531938346549 -0.05709257020504784 0.003546806165345088 0.05709257020504784 0.003546806165345088 0.05709257020504784 0.9964531938346549 -0.05709257020504784
573.2839021293739 0.9961354474060614 -0.05967827946877119 0.003864552593938495 0.05967827946877119 0.003864552593938495 0.05967827946877119 0.9961354474060614 -0.05967827946877119
599.5358053309263 0.9957890242228848 -0.06237915617995679 0.004210975777115215 0.06237915617995679 0.004210975777115215 0.06237915617995679 0.9957890242228848 -0.06237915617995679
626.9898396565933 0.9954113387165234 -0.06520009289427196 0.0045886612834766865 0.06520009289427196 0.0045886612834766865 0.06520009289427196 0.9954113387165234 -0.06520009289427196
655.7010532767296 0.9949995702490887 -0.06814615711448761 0.005000429750911218 0.06814615711448761 0.005000429750911218 0.06814615711448761 0.9949995702490887 -0.06814615711448761
685.7270151358366 0.9945506419623269 -0.07122259181616308 0.005449358037673157 0.07122259181616308 0.005449358037673157 0.07122259181616308 0.9945506419623269 -0.07122259181616308
717.1279303842347 0.9940611979859614 -0.07443481484749834 0.005938802014038751 0.07443481484749834 0.005938802014038751 0.07443481484749834 0.9940611979859614 -0.07443481484749834
749.9667610955984 0.9935275789390151 -0.07778841701704736 0.0064724210609848525 0.07778841701704736 0.0064724210609848525 0.07778841701704736 0.9935275789390151 -0.07778841701704736
784.3093525124082 0.9929457956614486 -0.0812891586645759 0.007054204338551513 0.0812891586645759 0.007054204338551513 0.0812891586645759 0.9929457956614486 -0.0812891586645759
820.2245650724522 0.9923115011179688 -0.08494296448960442 0.007688498882031308 0.08494296448960442 0.007688498882031308 0.08494296448960442 0.9923115011179688 -0.08494296448960442
857.7844124811068 0.9916199604216228 -0.08875591638857241 0.008380039578377277 0.08875591638857241 0.008380039578377277 0.08875591638857241 0.9916199604216228 -0.08875591638857241
897.0642061062428 0.9908660189324594 -0.09273424402462649 0.009133981067540438 0.09273424402462649 0.009133981067540438 0.09273424402462649 0.9908660189324594 -0.09273424402462649
938.1427059852851 0.9900440683970542 -0.09688431282340174 0.009955931602945885 0.09688431282340174 0.009955931602945885 0.09688431282340174 0.9900440683970542 -0.09688431282340174
981.102278747212 0.9891480111090695 -0.10121260905362042 0.010851988890930506 0.10121260905362042 0.010851988890930506 0.10121260905362042 0.9891480111090695 -0.10121260905362042
1026.0290627661395 0.9881712220905173 -0.10572572161283501 0.011828777909482694 0.10572572161283501 0.011828777909482694 0.10572572161283501 0.9881712220905173 -0.10572572161283501
1073.0131408776467 0.9871065093192821 -0.11043032009638024 0.012893490680717894 0.11043032009638024 0.012893490680717894 0.11043032009638024 0.9871065093192821 -0.11043032009638024
1122.1487210041523 0.9859460720622244 -0.11533312868198073 0.014053927937775601 0.11533312868198073 0.014053927937775601 0.11533312868198073 0.9859460720622244 -0.11533312868198073
1173.5343250515148 0.9846814574162461 -0.12044089531414803 0.015318542583753784 0.12044089531414803 0.015318542583753784 0.12044089531414803 0.9846814574162461 -0.12044089531414803
1227.2729864556143 0.9833035152136183 -0.1257603556224215 0.016696484786381728 0.1257603556224215 0.016696484786381728 0.1257603556224215 0.9833035152136183 -0.1257603556224215
1283.4724567750195 0.9818023515141815 -0.1312981909568629 0.018197648485818445 0.1312981909568629 0.018197648485818445 0.1312981909568629 0.9818023515141815 -0.1312981909568629
1342.245421743976 0.9801672809873172 -0.13706097987452998 0.019832719012682794 0.13706097987452998 0.019832719012682794 0.13706097987452998 0.9801672809873172 -0.13706097987452998
1403.7097272189235 0.9783867785823952 -0.14305514236378916 0.021613221417604835 0.14305514236378916 0.021613221417604835 0.14305514236378916 0.9783867785823952 -0.14305514236378916
1467.9886154715937 0.976448430999305 -0.1492868760515694 0.023551569000695046 0.1492868760515694 0.023551569000695046 0.1492868760515694 0.976448430999305 -0.1492868760515694
1535.2109723024755 0.9743388886021196 -0.15576208360472932 0.025661111397880382 0.15576208360472932 0.025661111397880382 0.15576208360472932 0.9743388886021196 -0.15576208360472932
1605.5115854701387 0.972043818570293 -0.16248629051391394 0.027956181429707117 0.16248629051391394 0.027956181429707117 0.16248629051391394 0.972043818570293 -0.16248629051391394
1679.0314149545911 0.9695478602541749 -0.16946455244050704 0.030452139745824936 0.16946455244050704 0.030452139745824936 0.16946455244050704 0.9695478602541749 -0.16946455244050704
1755.9178755965756 0.9668345838958479 -0.17670135131917095 0.03316541610415219 0.17670135131917095 0.03316541610415219 0.17670135131917095 0.9668345838958479 -0.17670135131917095
1836.3251326795319 0.9638864540926199 -0.184200479445389 0.03611354590738019 0.184200479445389 0.03611354590738019 0.184200479445389 0.9638864540926199 -0.184200479445389
1920.4144110468878 0.960684799618584 -0.19196491084563994 0.03931520038141598 0.19196491084563994 0.03931520038141598 0.19196491084563994 0.960684799618584 -0.19196491084563994
2008.3543183745 0.9572097914780477 -0.19999665933443725 0.04279020852195222 0.19999665933443725 0.04279020852195222 0.19999665933443725 0.9572097914780477 -0.19999665933443725
2100.321183246434 0.953440431340789 -0.20829662281543884 0.04655956865921088 0.20829662281543884 0.04655956865921088 0.20829662281543884 0.953440431340789 -0.20829662281543884
2196.4994087119585 0.9493545527987179 -0.2168644135919597 0.05064544720128195 0.2168644135919597 0.05064544720128195 0.2168644135919597 0.9493545527987179 -0.2168644135919597
2297.0818420326846 0.944928838180367 -0.22569817472493645 0.05507116181963284 0.22569817472493645 0.05507116181963284 0.22569817472493645 0.944928838180367 -0.22569817472493645
2402.270161361206 0.9401388539549501 -0.23479438282355558 0.05986114604504978 0.23479438282355558 0.05986114604504978 0.23479438282355558 0.9401388539549501 -0.23479438282355558
2512.2752801266033 0.9349591080397698 -0.2441476380852814 0.06504089196023018 0.2441476380852814 0.06504089196023018 0.2441476380852814 0.9349591080397698 -0.2441476380852814
2627.3177699376165 0.9293631325783089 -0.2537504429272863 0.07063686742169123 0.2537504429272863 0.07063686742169123 0.2537504429272863 0.9293631325783089 -0.2537504429272863
2747.6283028514745 0.9233235959621653 -0.26359297117845637 0.07667640403783467 0.26359297117845637 0.07667640403783467 0.26359297117845637 0.9233235959621653 -0.26359297117845637
2873.4481138951564 0.9168124480044375 -0.2736628305360915 0.08318755199556255 0.2736628305360915 0.08318755199556255 0.2736628305360915 0.9168124480044375 -0.2736628305360915
3005.0294847665045 0.9098011022068077 -0.2839448218364914 0.0901988977931923 0.2839448218364914 0.0901988977931923 0.2839448218364914 0.9098011022068077 -0.2839448218364914
3142.6362496850466 0.9022606589642218 -0.2944206996409737 0.09773934103577818 0.2944206996409737 0.09773934103577818 0.2944206996409737 0.9022606589642218 -0.2944206996409737
3286.544324406816 0.8941621732819679 -0.30506893968857307 0.10583782671803217 0.30506893968857307 0.10583782671803217 0.30506893968857307 0.8941621732819679 -0.30506893968857307
3437.0422594639017 0.8854769700987698 -0.3158645198944568 0.11452302990123006 0.3158645198944568 0.11452302990123006 0.3158645198944568 0.8854769700987698 -0.3158645198944568
3594.431818738024 0.8761770095727718 -0.3267787227478809 0.12382299042722818 0.3267787227478809 0.12382299042722818 0.3267787227478809 0.8761770095727718 -0.3267787227478809
3759.0285845282415 0.8662353036519994 -0.3377789681400273 0.1337646963480007 0.3377789681400273 0.1337646963480007 0.3377789681400273 0.8662353036519994 -0.3377789681400273
3931.162590326006 0.8556263838782235 -0.3488286867685428 0.14437361612177638 0.3488286867685428 0.14437361612177638 0.3488286867685428 0.8556263838782235 -0.3488286867685428
4111.17898256636 0.8443268186333217 -0.3598872452423565 0.15567318136667824 0.3598872452423565 0.15567318136667824 0.3598872452423565 0.8443268186333217 -0.3598872452423565
4299.438712682125 0.8323157759158206 -0.37090993474938694 0.16768422408417943 0.37090993474938694 0.16768422408417943 0.37090993474938694 0.8323157759158206 -0.37090993474938694
4496.31926084876 0.8195756252405376 -0.38184803553637026 0.18042437475946238 0.38184803553637026 0.18042437475946238 0.38184803553637026 0.8195756252405376 -0.38184803553637026
4702.215392871039 0.8060925694249866 -0.39264896935687726 0.19390743057501325 0.39264896935687726 0.19390743057501325 0.39264896935687726 0.8060925694249866 -0.39264896935687726
4917.539951729213 0.791857293939834 -0.4032565513379446 0.2081427060601661 0.4032565513379446 0.2081427060601661 0.4032565513379446 0.791857293939834 -0.4032565513379446
5142.724685371758 0.7768656182795929 -0.4136113512702617 0.22313438172040714 0.4136113512702617 0.22313438172040714 0.4136113512702617 0.7768656182795929 -0.4136113512702617
5378.221112414543 0.761119130625044 -0.4236511720341275 0.238880869374956 0.4236511720341275 0.238880869374956 0.4236511720341275 0.761119130625044 -0.4236511720341275
5624.501427482224 0.7446257841398687 -0.4333116496630945 0.2553742158601313 0.4333116496630945 0.2553742158601313 0.4333116496630945 0.7446257841398687 -0.4333116496630945
5882.059448007167 0.7274004308312472 -0.44252697540551483 0.27259956916875283 0.44252697540551483 0.27259956916875283 0.44252697540551483 0.7274004308312472 -0.44252697540551483
6151.41160438433 0.7094652672954727 -0.4512307351321349 0.29053473270452723 0.4512307351321349 0.29053473270452723 0.4512307351321349 0.7094652672954727 -0.4512307351321349
6433.097975467465 0.6908501661578538 -0.4593568557069591 0.3091498338421462 0.4593568557069591 0.3091498338421462 0.4593568557069591 0.6908501661578538 -0.4593568557069591
6727.683371482931 0.6715928678698844 -0.4668406417393804 0.32840713213011563 0.4668406417393804 0.32840713213011563 0.4668406417393804 0.6715928678698844 -0.4668406417393804
7035.758466532445 0.6517390099554969 -0.4736198798164819 0.3482609900445032 0.4736198798164819 0.3482609900445032 0.4736198798164819 0.6517390099554969 -0.4736198798164819
7357.940982955574 0.6313419749163389 -0.47963598130769547 0.368658025083661 0.47963598130769547 0.368658025083661 0.47963598130769547 0.6313419749163389 -0.47963598130769547
7694.876929926739 0.6104625437991656 -0.4848351296276016 0.3895374562008344 0.4848351296276016 0.3895374562008344 0.4848351296276016 0.6104625437991656 -0.4848351296276016
8047.241898770236 0.5891683497294726 -0.4891693939386981 0.4108316502705273 0.4891693939386981 0.4108316502705273 0.4891693939386981 0.5891683497294726 -0.4891693939386981
8415.742417590522 0.5675331341951131 -0.49259776913883435 0.432466865804887 0.49259776913883435 0.432466865804887 0.49259776913883435 0.5675331341951131 -0.49259776913883435
8801.117367933934 0.5456358180396582 -0.49508710197786765 0.4543641819603419 0.49508710197786765 0.4543641819603419 0.49508710197786765 0.5456358180396582 -0.49508710197786765
9204.139466322391 0.5235594083935717 -0.4966128655072633 0.47644059160642827 0.4966128655072633 0.47644059160642827 0.4966128655072633 0.5235594083935717 -0.4966128655072633
9625.61681362972 0.5013897714563144 -0.49715974881702835 0.4986102285436855 0.49715974881702835 0.4986102285436855 0.49715974881702835 0.5013897714563144 -0.49715974881702835
10066.394515407255 0.47921430846335106 -0.49672203597580067 0.520785691536649 0.49672203597580067 0.520785691536649 0.49672203597580067 0.47921430846335106 -0.49672203597580067
10527.356376407623 0.457120577715391 -0.4953037568702713 0.5428794222846091 0.4953037568702713 0.5428794222846091 0.4953037568702713 0.457120577715391 -0.4953037568702713
11009.426672704432 0.4351949087375782 -0.4929186026654821 0.5648050912624217 0.4929186026654821 0.5648050912624217 0.4929186026654821 0.4351949087375782 -0.4929186026654821
11513.572004961125 0.4135210551926966 -0.48958960917538263 0.5864789448073034 0.48958960917538263 0.5864789448073034 0.48958960917538263 0.4135210551926966 -0.48958960917538263
12040.803236564994 0.39217893104251783 -0.48534862178361693 0.6078210689574821 0.48534862178361693 0.6078210689574821 0.48534862178361693 0.39217893104251783 -0.48534862178361693
12592.177520512549 0.37124346981803935 -0.4802355649505366 0.6287565301819608 0.4802355649505366 0.6287565301819608 0.4802355649505366 0.37124346981803935 -0.4802355649505366
